LTspice 24.0.12 for Windows
Circuit: * c:\Users\maurovlachus\OneDrive - Technical University of Cluj-Napoca\utcn\master\caa\proiect\p1_opamps\foldedCascode\designMethodology\ekvBasedModelling\ltspice\nmosFoldedCascode_ekvModellingEdited.asc
Start Time: Thu Jan  2 19:31:40 2025
solver = Normal
Maximum thread count: 22
tnom = 27
temp = 27
method = modified trap
Direct Newton iteration for .op point succeeded.
Semiconductor Device Operating Points:
                        --- BSIM3 MOSFETS ---
Name:        m1          m2          m3          m4          m5
Model:     n_130n      n_130n      n_130n      n_130n      n_130n
Id:        5.90e-05    6.18e-05    1.21e-04    8.88e-05    8.89e-05
Vgs:       3.02e-01    3.02e-01    6.32e-01    6.04e-01    6.04e-01
Vds:       1.67e+00    1.72e+00    1.20e+00    6.04e-01    6.30e-01
Vbs:      -1.20e+00   -1.20e+00    0.00e+00    0.00e+00    0.00e+00
Vth:       3.14e-01    3.13e-01    3.52e-01    3.92e-01    3.92e-01
Vdsat:     5.74e-02    5.78e-02    2.31e-01    1.84e-01    1.84e-01
Gm:        1.43e-03    1.49e-03    8.42e-04    8.08e-04    8.09e-04
Gds:       5.10e-05    5.30e-05    2.42e-06    3.60e-06    3.56e-06
Gmb        8.59e-05    8.93e-05    1.38e-04    1.37e-04    1.37e-04
Cbd:       9.98e-15    9.91e-15    2.44e-14    1.15e-14    1.14e-14
Cbs:       1.32e-14    1.32e-14    3.65e-14    1.46e-14    1.46e-14
Cgsov:     1.40e-14    1.40e-14    2.59e-14    1.03e-14    1.03e-14
Cgdov:     1.21e-14    1.21e-14    2.33e-14    1.01e-14    1.01e-14
Cgbov:     0.00e+00    0.00e+00    0.00e+00    0.00e+00    0.00e+00
dQgdVgb:   3.56e-14    3.58e-14    1.27e-12    1.79e-13    1.79e-13
dQgdVdb:  -1.19e-14   -1.19e-14   -2.34e-14   -1.03e-14   -1.02e-14
dQgdVsb:  -2.09e-14   -2.11e-14   -1.18e-12   -1.59e-13   -1.59e-13
dQddVgb:  -1.21e-14   -1.21e-14   -2.41e-14   -1.07e-14   -1.06e-14
dQddVdb:   2.21e-14    2.20e-14    4.80e-14    2.19e-14    2.17e-14
dQddVsb:   1.57e-18    1.52e-18    6.53e-16    3.59e-16    3.27e-16
dQbdVgb:  -2.54e-15   -2.53e-15   -1.61e-13   -2.00e-14   -2.00e-14
dQbdVdb:  -9.96e-15   -9.89e-15   -2.44e-14   -1.15e-14   -1.14e-14
dQbdVsb:  -1.39e-14   -1.39e-14   -1.52e-13   -3.11e-14   -3.11e-14

Name:        m6          m7          m16         m17         m8
Model:     n_130n      n_130n      n_130n      n_130n      p_130n
Id:        8.88e-05    8.89e-05    1.00e-05    2.07e-06   -8.88e-05
Vgs:       4.68e-01    4.43e-01    6.32e-01    6.32e-01   -5.88e-01
Vds:       4.68e-01    1.12e+00    6.32e-01    2.28e+00   -1.79e+00
Vbs:      -6.04e-01   -6.30e-01    0.00e+00    0.00e+00    4.36e-01
Vth:       3.14e-01    2.98e-01    3.52e-01    3.52e-01   -3.40e-01
Vdsat:     1.49e-01    1.43e-01    2.31e-01    2.31e-01   -1.96e-01
Gm:        9.72e-04    9.92e-04    6.98e-05    1.44e-05    5.40e-04
Gds:       4.13e-05    3.92e-05    2.29e-07    4.00e-08    5.40e-05
Gmb        3.68e-05    3.84e-05    1.15e-05    2.35e-06    5.73e-05
Cbd:       1.58e-15    1.37e-15    2.43e-15    3.82e-16    9.75e-16
Cbs:       1.80e-15    1.78e-15    3.13e-15    6.90e-16    1.46e-15
Cgsov:     1.57e-15    1.57e-15    2.17e-15    4.33e-16    1.19e-15
Cgdov:     1.54e-15    1.40e-15    2.12e-15    3.70e-16    1.04e-15
Cgbov:     0.00e+00    0.00e+00    0.00e+00    0.00e+00    0.00e+00
dQgdVgb:   5.25e-15    5.10e-15    1.07e-13    2.13e-14    3.90e-15
dQgdVdb:  -1.49e-15   -1.35e-15   -2.25e-15   -3.71e-16   -9.46e-16
dQgdVsb:  -3.43e-15   -3.42e-15   -9.91e-14   -1.98e-14   -2.76e-15
dQddVgb:  -1.55e-15   -1.40e-15   -2.55e-15   -3.73e-16   -1.04e-15
dQddVdb:   3.12e-15    2.77e-15    4.83e-15    7.53e-16    2.01e-15
dQddVsb:   7.55e-18    1.12e-18    2.28e-16    2.75e-18    3.84e-19
dQbdVgb:  -1.84e-16   -1.86e-16   -1.34e-14   -2.69e-15   -1.77e-16
dQbdVdb:  -1.57e-15   -1.36e-15   -2.49e-15   -3.82e-16   -9.63e-16
dQbdVsb:  -2.03e-15   -2.01e-15   -1.29e-14   -2.63e-15   -1.66e-15

Name:        m9          m10         m11         m12         m13
Model:     p_130n      p_130n      p_130n      p_130n      p_130n
Id:       -8.55e-05   -1.48e-04   -1.47e-04   -1.00e-05   -1.00e-05
Vgs:      -6.41e-01   -4.70e-01   -4.70e-01   -7.55e-01   -7.55e-01
Vds:      -1.17e+00   -4.36e-01   -3.82e-01   -7.56e-01   -7.55e-01
Vbs:       3.82e-01    0.00e+00    0.00e+00    0.00e+00    0.00e+00
Vth:      -3.76e-01   -3.84e-01   -3.84e-01   -3.61e-01   -3.61e-01
Vdsat:    -2.04e-01   -1.04e-01   -1.04e-01   -3.12e-01   -3.12e-01
Gm:        5.04e-04    2.09e-03    2.08e-03    4.83e-05    4.83e-05
Gds:       5.55e-05    7.88e-06    9.23e-06    1.23e-07    1.24e-07
Gmb        5.37e-05    3.99e-04    3.98e-04    8.71e-06    8.71e-06
Cbd:       1.10e-15    2.30e-13    2.34e-13    3.54e-15    3.54e-15
Cbs:       1.49e-15    2.77e-13    2.77e-13    4.72e-15    4.72e-15
Cgsov:     1.19e-15    1.97e-13    1.97e-13    3.30e-15    3.30e-15
Cgdov:     1.08e-15    1.94e-13    1.95e-13    3.23e-15    3.23e-15
Cgbov:     0.00e+00    0.00e+00    0.00e+00    0.00e+00    0.00e+00
dQgdVgb:   3.95e-15    3.24e-12    3.24e-12    1.63e-13    1.63e-13
dQgdVdb:  -9.90e-16   -1.96e-13   -1.98e-13   -3.44e-15   -3.44e-15
dQgdVsb:  -2.76e-15   -2.80e-12   -2.80e-12   -1.52e-13   -1.52e-13
dQddVgb:  -1.08e-15   -2.05e-13   -2.10e-13   -3.82e-15   -3.83e-15
dQddVdb:   2.18e-15    4.28e-13    4.35e-13    7.21e-15    7.21e-15
dQddVsb:   1.00e-18    9.45e-15    1.22e-14    2.60e-16    2.61e-16
dQbdVgb:  -1.78e-16   -4.29e-13   -4.28e-13   -2.09e-14   -2.09e-14
dQbdVdb:  -1.08e-15   -2.31e-13   -2.36e-13   -3.63e-15   -3.63e-15
dQbdVsb:  -1.69e-15   -5.82e-13   -5.83e-13   -1.97e-14   -1.97e-14

Name:        m14         m15         m19         m18
Model:     p_130n      p_130n      p_130n      p_130n
Id:       -1.00e-05   -1.00e-05   -2.07e-06   -2.07e-06
Vgs:      -8.81e-01   -8.82e-01   -4.70e-01   -5.53e-01
Vds:      -1.91e+00   -8.82e-01   -4.70e-01   -5.53e-01
Vbs:       7.56e-01    7.55e-01    0.00e+00    4.70e-01
Vth:      -4.93e-01   -4.92e-01   -3.84e-01   -5.01e-01
Vdsat:    -3.22e-01   -3.23e-01   -1.04e-01   -8.86e-02
Gm:        4.78e-05    4.76e-05    2.92e-05    3.31e-05
Gds:       1.94e-08    8.97e-08    1.01e-07    2.63e-07
Gmb        7.49e-06    7.47e-06    5.59e-06    5.35e-06
Cbd:       2.45e-15    2.88e-15    3.24e-15    2.01e-15
Cbs:       3.54e-15    3.54e-15    3.95e-15    2.36e-15
Cgsov:     3.30e-15    3.30e-15    2.75e-15    1.99e-15
Cgdov:     2.88e-15    3.23e-15    2.69e-15    1.95e-15
Cgbov:     0.00e+00    0.00e+00    0.00e+00    0.00e+00
dQgdVgb:   1.60e-13    1.60e-13    4.52e-14    1.61e-14
dQgdVdb:  -2.89e-15   -3.35e-15   -2.71e-15   -1.95e-15
dQgdVsb:  -1.49e-13   -1.49e-13   -3.91e-14   -1.29e-14
dQddVgb:  -2.92e-15   -3.60e-15   -2.82e-15   -1.97e-15
dQddVdb:   5.34e-15    6.35e-15    5.97e-15    3.96e-15
dQddVsb:   3.16e-17    1.86e-16    1.13e-16    2.27e-17
dQbdVgb:  -1.80e-14   -1.79e-14   -5.99e-15   -1.89e-15
dQbdVdb:  -2.45e-15   -2.92e-15   -3.25e-15   -2.01e-15
dQbdVsb:  -1.40e-14   -1.40e-14   -8.21e-15   -3.44e-15


Total elapsed time: 0.018 seconds.

