LTspice 24.0.12 for Windows
Circuit: * c:\Users\maurovlachus\OneDrive - Technical University of Cluj-Napoca\utcn\master\caa\proiect\p1_opamps\test_foldedCascode.asc
Start Time: Tue Dec 24 20:01:20 2024
solver = Normal
Maximum thread count: 22
tnom = 27
temp = 27
method = modified trap
Direct Newton iteration for .op point succeeded.
Semiconductor Device Operating Points:
                        --- BSIM3 MOSFETS ---
Name:      m:x1:4      m:x1:5      m:x1:6      m:x1:7      m:x1:3
Model:     n_130n      n_130n      n_130n      n_130n      n_130n
Id:        1.74e-04    1.74e-04    1.74e-04    1.74e-04    1.00e-04
Vgs:       1.46e+00    1.46e+00    1.69e+00    1.67e+00    1.15e+00
Vds:       7.98e-01    8.20e-01    6.58e-01    7.10e-01    1.15e+00
Vbs:       0.00e+00    0.00e+00   -7.98e-01   -8.20e-01    0.00e+00
Vth:       3.62e-01    3.62e-01    4.92e-01    4.95e-01    3.62e-01
Vdsat:     7.69e-01    7.69e-01    8.84e-01    8.68e-01    5.71e-01
Gm:        2.41e-04    2.44e-04    1.49e-04    1.67e-04    2.29e-04
Gds:       2.03e-05    1.62e-05    1.10e-04    7.99e-05    1.51e-06
Gmb        4.88e-05    4.90e-05    4.27e-05    4.45e-05    3.81e-05
Cbd:       2.13e-15    2.12e-15    1.82e-15    1.80e-15    1.95e-15
Cbs:       2.88e-15    2.88e-15    2.13e-15    2.12e-15    2.88e-15
Cgsov:     1.99e-15    1.99e-15    1.99e-15    1.99e-15    1.99e-15
Cgdov:     1.99e-15    1.99e-15    1.99e-15    1.99e-15    1.95e-15
Cgbov:     0.00e+00    0.00e+00    0.00e+00    0.00e+00    0.00e+00
dQgdVgb:   6.92e-14    6.86e-14    7.67e-14    7.45e-14    6.58e-14
dQgdVdb:  -7.15e-15   -6.31e-15   -2.06e-14   -1.68e-14   -2.04e-15
dQgdVsb:  -6.09e-14   -6.11e-14   -5.51e-14   -5.64e-14   -6.16e-14
dQddVgb:  -9.87e-15   -8.68e-15   -2.68e-14   -2.23e-14   -2.16e-15
dQddVdb:   1.49e-14    1.31e-14    4.09e-14    3.31e-14    4.09e-15
dQddVsb:  -2.19e-15   -1.74e-15   -9.26e-15   -6.57e-15    4.86e-17
dQbdVgb:  -6.28e-15   -6.50e-15   -2.62e-15   -3.34e-15   -7.81e-15
dQbdVdb:  -4.15e-15   -3.81e-15   -7.88e-15   -6.58e-15   -1.99e-15
dQbdVsb:  -6.77e-15   -6.84e-15   -4.10e-15   -4.49e-15   -7.79e-15

Name:      m:x1:12     m:x1:13     m:x1:14     m:x1:8      m:x1:9
Model:     n_130n      n_130n      n_130n      p_130n      p_130n
Id:        1.00e-04    5.12e-05    5.12e-05   -1.74e-04   -1.74e-04
Vgs:       1.34e+00    1.15e+00    2.31e+00   -2.99e+00   -2.97e+00
Vds:       1.34e+00    1.80e-01    1.01e-01   -1.75e+00   -1.80e+00
Vbs:      -1.15e+00    0.00e+00   -1.80e-01    2.49e-02    4.51e-02
Vth:       5.39e-01    3.62e-01    3.95e-01   -3.72e-01   -3.76e-01
Vdsat:     6.18e-01    5.71e-01    1.31e+00   -1.92e+00   -1.90e+00
Gm:        2.03e-04    7.15e-05    7.11e-07    3.78e-05    4.18e-05
Gds:       1.39e-06    2.30e-04    4.87e-04    2.24e-05    1.73e-05
Gmb        3.54e-05    1.56e-05    1.06e-05    3.31e-05    3.32e-05
Cbd:       1.53e-15    2.64e-15    2.53e-15    1.72e-15    1.69e-15
Cbs:       1.95e-15    2.88e-15    2.64e-15    2.84e-15    2.81e-15
Cgsov:     1.99e-15    1.99e-15    1.99e-15    1.99e-15    1.99e-15
Cgdov:     1.95e-15    1.99e-15    1.99e-15    1.99e-15    1.99e-15
Cgbov:     0.00e+00    0.00e+00    0.00e+00    0.00e+00    0.00e+00
dQgdVgb:   6.44e-14    8.40e-14    8.38e-14    6.87e-14    6.76e-14
dQgdVdb:  -2.00e-15   -3.51e-14   -4.13e-14   -8.29e-15   -6.60e-15
dQgdVsb:  -5.98e-14   -4.85e-14   -4.24e-14   -6.16e-14   -6.21e-14
dQddVgb:  -2.08e-15   -4.00e-14   -4.17e-14   -1.10e-14   -8.72e-15
dQddVdb:   3.58e-15    7.37e-14    8.50e-14    1.70e-14    1.34e-14
dQddVsb:   3.97e-17   -2.51e-14   -3.42e-14   -4.77e-15   -3.31e-15
dQbdVgb:  -6.56e-15   -7.42e-16   -1.28e-16   -6.02e-15   -6.43e-15
dQbdVdb:  -1.55e-15   -1.56e-14   -1.69e-14   -4.31e-15   -3.58e-15
dQbdVsb:  -4.98e-15   -4.10e-15   -2.20e-15   -3.64e-15   -3.98e-15

Name:      m:x1:10     m:x1:11     m:x1:1      m:x1:2      m:x1:15
Model:     p_130n      p_130n      p_130n      p_130n      p_130n
Id:       -5.82e-06   -3.37e-04    1.63e-04   -1.68e-04   -5.12e-05
Vgs:      -1.36e+00   -1.36e+00   -1.74e+00   -1.62e+00   -1.36e+00
Vds:      -4.51e-02   -2.49e-02    9.66e-03   -1.05e-02   -1.36e+00
Vbs:       0.00e+00    0.00e+00    0.00e+00    0.00e+00    0.00e+00
Vth:      -3.67e-01   -3.84e-01   -3.82e-01   -3.84e-01   -3.67e-01
Vdsat:    -7.31e-01   -7.01e-01   -9.56e-01   -8.68e-01   -7.31e-01
Gm:        4.64e-06    2.65e-04    6.01e-05    8.07e-05    8.79e-05
Gds:       1.25e-04    1.33e-02    1.68e-02    1.59e-02    5.77e-07
Gmb        1.58e-06    9.19e-05    3.84e-05    4.13e-05    1.86e-05
Cbd:       2.81e-15    1.46e-13    1.49e-13    1.47e-13    1.86e-15
Cbs:       2.88e-15    1.48e-13    1.48e-13    1.48e-13    2.88e-15
Cgsov:     1.99e-15    1.05e-13    1.05e-13    1.05e-13    1.99e-15
Cgdov:     1.99e-15    1.05e-13    1.05e-13    1.05e-13    1.95e-15
Cgbov:     0.00e+00    0.00e+00    0.00e+00    0.00e+00    0.00e+00
dQgdVgb:   8.47e-14    2.29e-12    2.28e-12    2.28e-12    6.59e-14
dQgdVdb:  -4.08e-14   -1.12e-12   -1.13e-12   -1.13e-12   -2.03e-15
dQgdVsb:  -4.37e-14   -1.17e-12   -1.14e-12   -1.15e-12   -6.19e-14
dQddVgb:  -4.21e-14   -1.14e-12   -1.14e-12   -1.14e-12   -2.13e-15
dQddVdb:   8.73e-14    2.38e-12    2.43e-12    2.41e-12    3.98e-15
dQddVsb:  -3.45e-14   -8.90e-13   -9.33e-13   -9.21e-13    3.04e-17
dQbdVgb:  -2.70e-16   -6.51e-15   -4.69e-15   -5.14e-15   -8.09e-15
dQbdVdb:  -1.90e-14   -5.56e-13   -5.67e-13   -5.63e-13   -1.89e-15
dQbdVsb:  -2.87e-15   -1.57e-13   -1.46e-13   -1.54e-13   -7.68e-15

Name:      m:x1:16     m:x1:17
Model:     p_130n      p_130n
Id:       -4.49e-06   -5.12e-05
Vgs:      -1.36e+00   -1.65e+00
Vds:      -3.46e-02   -1.65e+00
Vbs:       0.00e+00    1.36e+00
Vth:      -3.67e-01   -5.84e-01
Vdsat:    -7.31e-01   -8.27e-01
Gm:        3.55e-06    7.33e-05
Gds:       1.27e-04    4.16e-07
Gmb        1.22e-06    1.57e-05
Cbd:       2.83e-15    1.43e-15
Cbs:       2.88e-15    1.86e-15
Cgsov:     1.99e-15    1.99e-15
Cgdov:     1.99e-15    1.95e-15
Cgbov:     0.00e+00    0.00e+00
dQgdVgb:   8.48e-14    6.42e-14
dQgdVdb:  -4.11e-14   -1.99e-15
dQgdVsb:  -4.35e-14   -5.97e-14
dQddVgb:  -4.22e-14   -2.05e-15
dQddVdb:   8.78e-14    3.47e-15
dQddVsb:  -3.49e-14    2.69e-17
dQbdVgb:  -2.61e-16   -6.66e-15
dQbdVdb:  -1.91e-14   -1.44e-15
dQbdVsb:  -2.84e-15   -4.92e-15


Total elapsed time: 0.021 seconds.

