Circuit: * E:\OneDrive - Technical University of Cluj-Napoca\utcn\master\caa\proiect\p1_opamps\test_foldedCascode2.asc

WARNING: Node N004 is floating.
WARNING: Node IN+ is floating.

WARNING: Less than two connections to node VIN.  This node is used by V2.
WARNING: Less than two connections to node IN+.  This node is used by M10.
Direct Newton iteration for .op point succeeded.
Semiconductor Device Operating Points:
                        --- BSIM3 MOSFETS ---
Name:        m17         m16         m15         m10         m9
Model:     p_130n      p_130n      p_130n      p_130n      p_130n
Id:       -4.60e-05   -4.07e-05   -4.60e-05   -5.87e-05    1.80e-05
Vgs:      -1.57e+00   -1.30e+00   -1.30e+00   -2.80e+00    1.92e-01
Vds:      -1.57e+00   -5.03e-01   -1.30e+00   -3.11e-03    4.98e-01
Vbs:       1.30e+00    0.00e+00    0.00e+00    0.00e+00    0.00e+00
Vth:      -5.76e-01   -3.67e-01   -3.67e-01   -3.84e-01   -3.04e-01
Vdsat:    -7.71e-01   -6.88e-01   -6.88e-01   -1.69e+00   -6.06e-02
Gm:        7.30e-05    5.84e-05    8.55e-05   -3.40e-06    3.41e-04
Gds:       3.87e-07    3.58e-05    5.36e-07    1.88e-02    8.58e-07
Gmb        1.49e-05    1.38e-05    1.76e-05    1.15e-05    4.20e-05
Cbd:       1.45e-15    2.34e-15    1.88e-15    1.48e-13    1.87e-13
Cbs:       1.88e-15    2.88e-15    2.88e-15    1.48e-13    1.48e-13
Cgsov:     1.99e-15    1.99e-15    1.99e-15    1.05e-13    9.89e-14
Cgdov:     1.95e-15    1.99e-15    1.95e-15    1.05e-13    1.04e-13
Cgbov:     0.00e+00    0.00e+00    0.00e+00    0.00e+00    0.00e+00
dQgdVgb:   6.43e-14    7.67e-14    6.59e-14    2.25e-12    1.26e-12
dQgdVdb:  -1.99e-15   -1.87e-14   -2.03e-15   -1.15e-12   -1.04e-13
dQgdVsb:  -5.98e-14   -5.69e-14   -6.19e-14   -1.10e-12   -1.04e-12
dQddVgb:  -2.06e-15   -2.49e-14   -2.13e-15   -1.12e-12   -1.06e-13
dQddVdb:   3.50e-15    3.99e-14    4.00e-15    2.45e-12    2.91e-13
dQddVsb:   2.95e-17   -9.85e-15    3.46e-17   -9.65e-13    1.65e-15
dQbdVgb:  -6.69e-15   -3.66e-15   -8.11e-15   -2.46e-15   -3.50e-13
dQbdVdb:  -1.47e-15   -9.30e-15   -1.92e-15   -5.70e-13   -1.87e-13
dQbdVsb:  -5.03e-15   -6.15e-15   -7.80e-15   -1.49e-13   -1.31e-14

Name:        m8          m7          m6          m5          m14
Model:     p_130n      p_130n      p_130n      p_130n      n_130n
Id:       -6.88e-05   -4.08e-05   -9.95e-05   -5.08e-05    4.60e-05
Vgs:      -1.30e+00   -1.30e+00   -2.37e+00   -2.87e+00    1.63e+00
Vds:      -5.28e-03   -5.06e-01   -8.43e-01   -3.05e-01    1.08e-01
Vbs:       0.00e+00    0.00e+00    5.06e-01    5.28e-03   -3.18e-01
Vth:      -3.84e-01   -3.67e-01   -4.59e-01   -3.68e-01    4.19e-01
Vdsat:    -6.61e-01   -6.88e-01   -1.43e+00   -1.82e+00    8.73e-01
Gm:        5.93e-05    5.87e-05    2.74e-05   -1.87e-06    2.27e-05
Gds:       1.30e-02    3.53e-05    7.03e-05    1.52e-04    3.97e-04
Gmb        1.93e-05    1.38e-05    2.02e-05    9.96e-06    1.04e-05
Cbd:       1.48e-13    2.33e-15    1.86e-15    2.51e-15    2.40e-15
Cbs:       1.48e-13    2.88e-15    2.33e-15    2.87e-15    2.50e-15
Cgsov:     1.05e-13    1.99e-15    1.99e-15    1.99e-15    1.99e-15
Cgdov:     1.05e-13    1.99e-15    1.99e-15    1.99e-15    1.99e-15
Cgbov:     0.00e+00    0.00e+00    0.00e+00    0.00e+00    0.00e+00
dQgdVgb:   2.29e-12    7.66e-14    7.94e-14    8.30e-14    8.43e-14
dQgdVdb:  -1.12e-12   -1.85e-14   -2.70e-14   -3.96e-14   -4.01e-14
dQgdVsb:  -1.16e-12   -5.70e-14   -5.20e-14   -4.33e-14   -4.41e-14
dQddVgb:  -1.14e-12   -2.46e-14   -3.29e-14   -4.11e-14   -4.18e-14
dQddVdb:   2.40e-12    3.94e-14    5.48e-14    8.44e-14    8.17e-14
dQddVsb:  -9.02e-13   -9.66e-15   -1.69e-14   -3.54e-14   -3.13e-14
dQbdVgb:  -6.52e-15   -3.72e-15   -1.66e-15   -1.94e-16   -2.12e-16
dQbdVdb:  -5.61e-13   -9.20e-15   -1.09e-14   -1.81e-14   -1.58e-14
dQbdVsb:  -1.57e-13   -6.18e-15   -3.10e-15   -1.68e-15   -2.22e-15

Name:        m13         m12         m11         m4          m3
Model:     n_130n      n_130n      n_130n      n_130n      n_130n
Id:        4.60e-05    5.02e-05    5.08e-05    5.08e-05    5.94e-05
Vgs:       9.08e-01    1.04e+00    9.08e-01    1.04e+00    1.04e+00
Vds:       3.18e-01    1.04e+00    9.08e-01    2.08e+00    1.04e+00
Vbs:       0.00e+00   -9.08e-01    0.00e+00   -9.09e-01   -5.64e-01
Vth:       3.62e-01    5.07e-01    3.62e-01    5.07e-01    4.58e-01
Vdsat:     4.13e-01    4.28e-01    4.13e-01    4.27e-01    4.58e-01
Gm:        1.34e-04    1.68e-04    1.76e-04    1.70e-04    1.84e-04
Gds:       5.57e-05    9.27e-07    9.79e-07    8.71e-07    1.06e-06
Gmb        2.23e-05    2.50e-05    2.80e-05    2.52e-05    2.86e-05
Cbd:       2.50e-15    1.66e-15    2.07e-15    1.43e-15    1.77e-15
Cbs:       2.88e-15    2.07e-15    2.88e-15    2.07e-15    2.29e-15
Cgsov:     1.99e-15    1.99e-15    1.99e-15    1.99e-15    1.99e-15
Cgdov:     1.99e-15    1.95e-15    1.95e-15    1.74e-15    1.95e-15
Cgbov:     0.00e+00    0.00e+00    0.00e+00    0.00e+00    0.00e+00
dQgdVgb:   7.58e-14    6.47e-14    6.61e-14    6.44e-14    6.50e-14
dQgdVdb:  -1.63e-14   -2.00e-15   -2.04e-15   -1.74e-15   -2.02e-15
dQgdVsb:  -5.80e-14   -6.00e-14   -6.12e-14   -5.99e-14   -6.02e-14
dQddVgb:  -2.25e-14   -2.09e-15   -2.18e-15   -1.75e-15   -2.12e-15
dQddVdb:   3.43e-14    3.72e-15    4.21e-15    3.18e-15    3.85e-15
dQddVsb:  -6.32e-15    5.92e-17    7.85e-17    1.14e-17    6.21e-17
dQbdVgb:  -4.12e-15   -6.69e-15   -7.91e-15   -6.71e-15   -6.93e-15
dQbdVdb:  -8.08e-15   -1.68e-15   -2.11e-15   -1.43e-15   -1.79e-15
dQbdVsb:  -7.29e-15   -5.55e-15   -8.31e-15   -5.54e-15   -6.40e-15

Name:        m2          m1
Model:     n_130n      n_130n
Id:        5.08e-05    5.87e-05
Vgs:       9.08e-01    9.08e-01
Vds:       9.09e-01    9.08e-01
Vbs:       0.00e+00    3.44e-01
Vth:       3.62e-01    3.07e-01
Vdsat:     4.13e-01    4.33e-01
Gm:        1.76e-04    1.87e-04
Gds:       9.78e-07    1.09e-06
Gmb        2.80e-05    1.86e-05
Cbd:       2.07e-15    2.29e-15
Cbs:       2.88e-15    3.39e-15
Cgsov:     1.99e-15    1.99e-15
Cgdov:     1.95e-15    1.95e-15
Cgbov:     0.00e+00    0.00e+00
dQgdVgb:   6.61e-14    6.69e-14
dQgdVdb:  -2.04e-15   -2.06e-15
dQgdVsb:  -6.12e-14   -6.45e-14
dQddVgb:  -2.18e-15   -2.22e-15
dQddVdb:   4.21e-15    4.48e-15
dQddVsb:   7.82e-17    5.50e-17
dQbdVgb:  -7.91e-15   -8.76e-15
dQbdVdb:  -2.11e-15   -2.34e-15
dQbdVsb:  -8.31e-15   -2.40e-15



Date: Sun Dec 15 18:23:13 2024
Total elapsed time: 0.062 seconds.

tnom = 27
temp = 27
method = trap
totiter = 39
traniter = 0
tranpoints = 0
accept = 0
rejected = 0
matrix size = 18
fillins = 22
solver = Normal
Matrix Compiler1: 3.61 KB object code size
Matrix Compiler2:     174 opcodes
