Circuit: * D:\Facultate\MASTER_AN_1\BLOCURI ANALOGICE AVANSATE\Proiect\biomedicalAnalogFrontend\p1_opamps\AO_CP_NMOS\test_ao_cp_n_AC.asc

Direct Newton iteration failed to find .op point.  (Use ".option noopiter" to skip.)
Starting Gmin stepping
Gmin = 10
Gmin = 1.07374
Gmin = 0.115292
Gmin = 0.0123794
Gmin = 0.00132923
Gmin = 0.000142725
Gmin = 1.5325e-005
Gmin = 1.6455e-006
Gmin = 1.76685e-007
Gmin = 1.89714e-008
Gmin = 2.03704e-009
Gmin = 2.18725e-010
Gmin = 2.34854e-011
Gmin = 2.52173e-012
Gmin = 2.70769e-013
Gmin = 0
Gmin stepping succeeded in finding the operating point.

Semiconductor Device Operating Points:
                        --- BSIM3 MOSFETS ---
Name:      m:x2:15     m:x2:14     m:x2:13     m:x2:12     m:x2:11
Model:     p_130n      p_130n      p_130n      p_130n      p_130n
Id:       -2.50e-05   -2.50e-05   -2.50e-05   -2.50e-05   -1.31e-04
Vgs:      -7.71e-01   -7.68e-01   -6.27e-01   -6.27e-01   -6.27e-01
Vds:      -7.71e-01   -2.11e+00   -6.27e-01   -6.30e-01   -6.77e-01
Vbs:       6.27e-01    6.30e-01    0.00e+00    0.00e+00    0.00e+00
Vth:      -4.95e-01   -4.96e-01   -3.84e-01   -3.84e-01   -3.84e-01
Vdsat:    -2.37e-01   -2.34e-01   -2.05e-01   -2.05e-01   -2.05e-01
Gm:        1.65e-04    1.67e-04    1.87e-04    1.87e-04    9.81e-04
Gds:       7.54e-07    2.54e-07    9.80e-07    9.74e-07    4.60e-06
Gmb        2.61e-05    2.64e-05    3.47e-05    3.47e-05    1.82e-04
Cbd:       4.53e-15    3.63e-15    7.15e-15    7.14e-15    3.66e-14
Cbs:       5.51e-15    5.51e-15    9.18e-15    9.18e-15    4.77e-14
Cgsov:     4.98e-15    4.98e-15    6.47e-15    6.47e-15    3.38e-14
Cgdov:     4.87e-15    4.29e-15    6.33e-15    6.33e-15    3.29e-14
Cgbov:     0.00e+00    0.00e+00    0.00e+00    0.00e+00    0.00e+00
dQgdVgb:   8.49e-14    8.43e-14    1.12e-13    1.12e-13    5.88e-13
dQgdVdb:  -4.92e-15   -4.29e-15   -6.43e-15   -6.43e-15   -3.33e-14
dQgdVsb:  -7.61e-14   -7.61e-14   -9.99e-14   -9.99e-14   -5.23e-13
dQddVgb:  -5.05e-15   -4.31e-15   -6.68e-15   -6.68e-15   -3.43e-14
dQddVdb:   9.50e-15    7.93e-15    1.37e-14    1.37e-14    7.02e-14
dQddVsb:   1.08e-16    1.18e-17    2.13e-16    2.11e-16    9.42e-16
dQbdVgb:  -8.73e-15   -8.76e-15   -1.32e-14   -1.32e-14   -6.89e-14
dQbdVdb:  -4.55e-15   -3.63e-15   -7.19e-15   -7.18e-15   -3.67e-14
dQbdVsb:  -1.13e-14   -1.13e-14   -1.96e-14   -1.96e-14   -1.02e-13

Name:      m:x2:10     m:x2:9      m:x2:8      m:x2:16     m:x2:7
Model:     p_130n      p_130n      p_130n      n_130n      n_130n
Id:       -1.31e-04   -6.78e-05   -6.78e-05    2.50e-05    6.78e-05
Vgs:      -6.27e-01   -7.21e-01   -7.21e-01    5.63e-01    7.13e-01
Vds:      -6.77e-01   -9.73e-01   -1.29e+00    5.63e-01    1.03e+00
Vbs:       0.00e+00    6.77e-01    6.77e-01    0.00e+00   -6.20e-01
Vth:      -3.84e-01   -5.03e-01   -5.03e-01    3.52e-01    4.96e-01
Vdsat:    -2.05e-01   -1.96e-01   -1.96e-01    1.81e-01    1.95e-01
Gm:        9.81e-04    5.50e-04    5.51e-04    2.33e-04    5.84e-04
Gds:       4.59e-06    1.46e-06    1.09e-06    6.30e-07    2.53e-06
Gmb        1.82e-04    8.57e-05    8.59e-05    3.89e-05    8.37e-05
Cbd:       3.66e-14    1.75e-14    1.65e-14    1.06e-14    6.01e-15
Cbs:       4.77e-14    2.21e-14    2.21e-14    1.34e-14    7.71e-15
Cgsov:     3.38e-14    2.04e-14    2.04e-14    9.45e-15    6.97e-15
Cgdov:     3.29e-14    1.91e-14    1.84e-14    9.25e-15    6.46e-15
Cgbov:     0.00e+00    0.00e+00    0.00e+00    0.00e+00    0.00e+00
dQgdVgb:   5.88e-13    3.47e-13    3.46e-13    4.68e-13    1.18e-13
dQgdVdb:  -3.33e-14   -1.92e-14   -1.84e-14   -9.76e-15   -6.48e-15
dQgdVsb:  -5.23e-13   -3.11e-13   -3.11e-13   -4.31e-13   -1.06e-13
dQddVgb:  -3.43e-14   -1.94e-14   -1.85e-14   -1.11e-14   -6.55e-15
dQddVdb:   7.02e-14    3.67e-14    3.50e-14    2.09e-14    1.25e-14
dQddVsb:   9.40e-16    2.43e-16    1.32e-16    1.15e-15    7.36e-17
dQbdVgb:  -6.89e-14   -3.57e-14   -3.57e-14   -5.89e-14   -1.16e-14
dQbdVdb:  -3.67e-14   -1.75e-14   -1.66e-14   -1.08e-14   -6.02e-15
dQbdVsb:  -1.02e-13   -4.55e-14   -4.54e-14   -5.69e-14   -1.54e-14

Name:      m:x2:6      m:x2:5      m:x2:4      m:x2:3      m:x2:2
Model:     n_130n      n_130n      n_130n      n_130n      n_130n
Id:        6.78e-05    6.78e-05    6.78e-05    1.26e-04    6.32e-05
Vgs:       7.14e-01    6.19e-01    6.19e-01    5.63e-01    6.01e-01
Vds:       7.14e-01    6.20e-01    6.19e-01    1.05e+00    1.57e+00
Vbs:      -6.19e-01    0.00e+00    0.00e+00    0.00e+00   -1.05e+00
Vth:       4.96e-01    3.92e-01    3.92e-01    3.52e-01    5.55e-01
Vdsat:     1.96e-01    1.94e-01    1.94e-01    1.81e-01    7.70e-02
Gm:        5.82e-04    5.78e-04    5.78e-04    1.17e-03    1.33e-03
Gds:       2.64e-06    2.66e-06    2.66e-06    2.77e-06    3.69e-06
Gmb        8.35e-05    9.78e-05    9.78e-05    1.97e-04    1.72e-04
Cbd:       6.41e-15    7.71e-15    7.71e-15    4.63e-14    4.89e-14
Cbs:       7.71e-15    9.88e-15    9.88e-15    6.69e-14    6.50e-14
Cgsov:     6.97e-15    6.97e-15    6.97e-15    4.73e-14    6.67e-14
Cgdov:     6.82e-15    6.82e-15    6.82e-15    4.29e-14    5.84e-14
Cgbov:     0.00e+00    0.00e+00    0.00e+00    0.00e+00    0.00e+00
dQgdVgb:   1.18e-13    1.20e-13    1.20e-13    2.33e-12    9.63e-13
dQgdVdb:  -6.88e-15   -6.92e-15   -6.92e-15   -4.32e-14   -5.84e-14
dQgdVsb:  -1.06e-13   -1.07e-13   -1.07e-13   -2.15e-12   -8.36e-13
dQddVgb:  -7.07e-15   -7.19e-15   -7.19e-15   -4.47e-14   -5.86e-14
dQddVdb:   1.34e-14    1.47e-14    1.47e-14    8.99e-14    1.07e-13
dQddVsb:   1.66e-16    2.34e-16    2.35e-16    1.49e-15    1.95e-16
dQbdVgb:  -1.16e-14   -1.34e-14   -1.34e-14   -2.96e-13   -1.17e-13
dQbdVdb:  -6.43e-15   -7.75e-15   -7.75e-15   -4.65e-14   -4.89e-14
dQbdVsb:  -1.55e-14   -2.09e-14   -2.09e-14   -2.84e-13   -1.13e-13

Name:      m:x2:1
Model:     n_130n
Id:        6.32e-05
Vgs:       6.01e-01
Vds:       1.57e+00
Vbs:      -1.05e+00
Vth:       5.55e-01
Vdsat:     7.70e-02
Gm:        1.33e-03
Gds:       3.69e-06
Gmb        1.72e-04
Cbd:       4.89e-14
Cbs:       6.50e-14
Cgsov:     6.67e-14
Cgdov:     5.84e-14
Cgbov:     0.00e+00
dQgdVgb:   9.63e-13
dQgdVdb:  -5.84e-14
dQgdVsb:  -8.36e-13
dQddVgb:  -5.86e-14
dQddVdb:   1.07e-13
dQddVsb:   1.96e-16
dQbdVgb:  -1.17e-13
dQbdVdb:  -4.89e-14
dQbdVsb:  -1.13e-13



Date: Sun Jan 05 16:15:17 2025
Total elapsed time: 0.081 seconds.

tnom = 27
temp = 27
method = trap
totiter = 407
traniter = 0
tranpoints = 0
accept = 0
rejected = 0
matrix size = 20
fillins = 12
solver = Normal
Matrix Compiler1:     161 opcodes
Matrix Compiler2: off  [0.2]/0.2/0.3

