Circuit: * E:\OneDrive - Technical University of Cluj-Napoca\utcn\master\caa\proiect\ltspice\foldedCascode.asc

WARNING: Node N004 is floating.
WARNING: Node IN- is floating.
WARNING: Node IN+ is floating.

WARNING: Less than two connections to node IN-.  This node is used by M1.
WARNING: Less than two connections to node IN+.  This node is used by M2.
Early termination of direct N-R iteration.
Direct Newton iteration failed to find .op point.  (Use ".option noopiter" to skip.)
Starting Gmin stepping
Gmin = 10
Gmin = 1.07374
Gmin = 0.115292
Gmin = 0.0123794
Gmin = 0.00132923
Gmin = 0.000142725
Gmin = 1.5325e-005
Gmin = 1.6455e-006
Gmin = 1.76685e-007
Gmin = 1.89714e-008
Gmin = 2.03704e-009
Gmin = 2.18725e-010
Gmin = 2.34854e-011
Gmin = 2.52173e-012
Gmin = 2.70769e-013
Gmin = 0
Gmin stepping succeeded in finding the operating point.

Semiconductor Device Operating Points:
                        --- BSIM3 MOSFETS ---
Name:        m17         m16         m15         m2          m1
Model:     p_130n      p_130n      p_130n      p_130n      p_130n
Id:        5.92e-10    4.56e-08    1.38e-10    5.68e-08   -1.12e-08
Vgs:       8.22e-02    4.01e-01    4.01e-01   -7.98e-02   -7.98e-02
Vds:       8.22e-02    5.85e-01    4.01e-01    5.23e-02   -1.78e-01
Vbs:      -4.01e-01    0.00e+00    0.00e+00    0.00e+00    0.00e+00
Vth:      -2.88e-01   -2.75e-01   -3.00e-01   -3.74e-01   -3.84e-01
Vdsat:    -3.47e-02   -3.98e-02   -3.50e-02   -3.66e-02   -3.67e-02
Gm:        4.25e-09    5.17e-07    3.26e-09    1.53e-06    3.12e-07
Gds:       1.28e-10    3.37e-10    2.80e-12    2.16e-07    1.60e-09
Gmb        5.62e-10    6.03e-08    4.61e-10    2.91e-07    6.30e-08
Cbd:       3.60e-15    3.75e-15    3.48e-15    1.52e-13    1.36e-13
Cbs:       3.48e-15    2.88e-15    2.88e-15    1.48e-13    1.48e-13
Cgsov:     1.92e-15    1.82e-15    1.82e-15    1.03e-13    1.03e-13
Cgdov:     1.95e-15    1.98e-15    1.95e-15    1.04e-13    1.01e-13
Cgbov:     0.00e+00    0.00e+00    0.00e+00    0.00e+00    0.00e+00
dQgdVgb:   2.44e-14    2.58e-14    2.37e-14    6.25e-13    6.22e-13
dQgdVdb:  -1.95e-15   -1.98e-15   -1.95e-15   -1.04e-13   -1.01e-13
dQgdVsb:  -1.29e-14   -1.66e-14   -1.14e-14   -1.43e-13   -1.03e-13
dQddVgb:  -1.95e-15   -1.99e-15   -1.95e-15   -1.04e-13   -1.01e-13
dQddVdb:   5.55e-15    5.73e-15    5.43e-15    2.56e-13    2.37e-13
dQddVsb:   4.01e-19    6.31e-18    3.79e-20    4.25e-17    2.90e-18
dQbdVgb:  -2.06e-14   -1.81e-14   -2.00e-14   -4.17e-13   -4.18e-13
dQbdVdb:  -3.60e-15   -3.75e-15   -3.48e-15   -1.52e-13   -1.36e-13
dQbdVsb:   7.52e-15    7.52e-15    6.71e-15   -1.10e-13   -1.49e-13

Name:        m11         m10         m9          m8          m14
Model:     p_130n      p_130n      p_130n      p_130n      n_130n
Id:        1.14e-08    2.51e-07    1.00e-04    5.92e-10   -5.92e-10
Vgs:       4.01e-01    4.01e-01   -1.54e-01    7.55e-02    3.19e-01
Vds:       4.08e-01    6.37e-01    1.65e-01    7.55e-02   -1.80e-04
Vbs:       0.00e+00    0.00e+00   -6.37e-01   -4.08e-01    2.21e-02
Vth:      -3.16e-01   -2.69e-01   -2.51e-01   -2.88e-01    3.58e-01
Vdsat:    -3.51e-02   -4.96e-02   -8.62e-02   -3.47e-02    4.42e-02
Gm:        2.80e-07    1.66e-06    7.25e-06    4.22e-09    1.38e-08
Gds:       6.21e-10    1.06e-09    1.20e-07    1.67e-10    3.28e-06
Gmb        3.94e-08    1.84e-07    6.89e-07    5.59e-10    2.49e-09
Cbd:       1.80e-13    3.83e-15    4.08e-15    3.60e-15    2.91e-15
Cbs:       1.48e-13    2.88e-15    3.83e-15    3.49e-15    2.91e-15
Cgsov:     9.58e-14    1.82e-15    1.98e-15    1.93e-15    1.99e-15
Cgdov:     1.02e-13    1.98e-15    1.99e-15    1.95e-15    1.99e-15
Cgbov:     0.00e+00    0.00e+00    0.00e+00    0.00e+00    0.00e+00
dQgdVgb:   7.16e-13    3.55e-14    6.39e-14    2.45e-14    3.36e-14
dQgdVdb:  -1.02e-13   -1.98e-15   -2.53e-15   -1.95e-15   -1.12e-14
dQgdVsb:  -3.47e-13   -2.81e-14   -5.99e-14   -1.29e-14   -1.17e-14
dQddVgb:  -1.02e-13   -2.00e-15   -3.78e-15   -1.95e-15   -1.11e-14
dQddVdb:   2.82e-13    5.82e-15    7.32e-15    5.55e-15    2.41e-14
dQddVsb:   7.27e-19    2.17e-17    7.31e-16    4.17e-19   -8.30e-15
dQbdVgb:  -5.18e-13   -1.62e-14   -1.16e-14   -2.06e-14   -1.13e-14
dQbdVdb:  -1.80e-13   -3.83e-15   -4.37e-15   -3.60e-15   -6.53e-15
dQbdVsb:   1.03e-13    6.03e-15    1.47e-15    7.51e-15   -2.29e-15

Name:        m13         m12         m3          m7          m6
Model:     n_130n      n_130n      n_130n      n_130n      n_130n
Id:       -5.92e-10    4.02e-10    4.07e-10   -5.92e-10    7.82e-10
Vgs:       1.36e-01    1.61e-01    1.36e-01    3.19e-01    1.61e-01
Vds:      -2.21e-02    1.61e-01    1.36e-01   -1.80e-04    1.61e-01
Vbs:       0.00e+00   -1.36e-01    0.00e+00    2.21e-02   -2.20e-02
Vth:       3.58e-01    3.88e-01    3.62e-01    3.58e-01    3.67e-01
Vdsat:     3.72e-02    3.77e-02    3.72e-02    4.42e-02    3.73e-02
Gm:        1.78e-08    1.24e-08    1.24e-08    1.38e-08    2.37e-08
Gds:       1.64e-08    4.90e-11    7.53e-11    3.28e-06    9.46e-11
Gmb        3.48e-09    2.32e-09    2.49e-09    2.49e-09    4.65e-09
Cbd:       2.91e-15    2.52e-15    2.70e-15    2.91e-15    2.64e-15
Cbs:       2.88e-15    2.70e-15    2.88e-15    2.91e-15    2.85e-15
Cgsov:     1.97e-15    1.98e-15    1.97e-15    1.99e-15    1.98e-15
Cgdov:     1.98e-15    1.95e-15    1.95e-15    1.99e-15    1.95e-15
Cgbov:     0.00e+00    0.00e+00    0.00e+00    0.00e+00    0.00e+00
dQgdVgb:   1.96e-14    1.83e-14    1.95e-14    3.36e-14    1.91e-14
dQgdVdb:  -1.99e-15   -1.95e-15   -1.95e-15   -1.12e-14   -1.95e-15
dQgdVsb:  -2.79e-15   -1.99e-15   -1.99e-15   -1.17e-14   -2.04e-15
dQddVgb:  -2.00e-15   -1.95e-15   -1.95e-15   -1.11e-14   -1.95e-15
dQddVdb:   4.92e-15    4.47e-15    4.65e-15    2.41e-14    4.59e-15
dQddVsb:  -1.66e-18    6.04e-19    8.35e-19   -8.30e-15    1.27e-18
dQbdVgb:  -1.55e-14   -1.43e-14   -1.55e-14   -1.13e-14   -1.51e-14
dQbdVdb:  -2.92e-15   -2.52e-15   -2.70e-15   -6.53e-15   -2.64e-15
dQbdVsb:  -2.20e-15   -2.73e-15   -2.92e-15   -2.29e-15   -2.89e-15

Name:        m5          m4
Model:     n_130n      n_130n
Id:       -5.91e-10    7.76e-10
Vgs:       1.36e-01    1.36e-01
Vds:      -2.21e-02    1.36e-01
Vbs:       0.00e+00    1.14e-01
Vth:       3.58e-01    3.42e-01
Vdsat:     3.72e-02    3.67e-02
Gm:        1.78e-08    2.32e-08
Gds:       1.64e-08    1.42e-10
Gmb        3.47e-09    4.10e-09
Cbd:       2.91e-15    2.85e-15
Cbs:       2.88e-15    3.05e-15
Cgsov:     1.97e-15    1.97e-15
Cgdov:     1.98e-15    1.95e-15
Cgbov:     0.00e+00    0.00e+00
dQgdVgb:   1.96e-14    2.04e-14
dQgdVdb:  -1.99e-15   -1.95e-15
dQgdVsb:  -2.78e-15   -5.51e-15
dQddVgb:  -2.00e-15   -1.95e-15
dQddVdb:   4.92e-15    4.80e-15
dQddVsb:  -1.67e-18    1.65e-18
dQbdVgb:  -1.55e-14   -1.64e-14
dQbdVdb:  -2.92e-15   -2.85e-15
dQbdVsb:  -2.20e-15    3.74e-16



Date: Sun Dec 15 16:35:20 2024
Total elapsed time: 0.077 seconds.

tnom = 27
temp = 27
method = trap
totiter = 369
traniter = 0
tranpoints = 0
accept = 0
rejected = 0
matrix size = 14
fillins = 12
solver = Normal
Matrix Compiler1: 3.35 KB object code size
Matrix Compiler2: 1.83 KB object code size  0.2/0.2/[0.2]

