Circuit: * E:\OneDrive - Technical University of Cluj-Napoca\utcn\master\caa\proiect\ltspice\test_foldedCascode.asc

WARNING: Node X1:N004 is floating.

Direct Newton iteration failed to find .op point.  (Use ".option noopiter" to skip.)
Starting Gmin stepping
Gmin = 10
Gmin = 1.07374
Gmin = 0.115292
Gmin = 0.0123794
Gmin = 0.00132923
Gmin = 0.000142725
Gmin = 1.5325e-005
Gmin = 1.6455e-006
Gmin = 1.76685e-007
Gmin = 1.89714e-008
Gmin = 2.03704e-009
Gmin = 2.18725e-010
Gmin = 2.34854e-011
Gmin = 2.52173e-012
Gmin = 2.70769e-013
Gmin = 0
Gmin stepping succeeded in finding the operating point.

Semiconductor Device Operating Points:
                        --- BSIM3 MOSFETS ---
Name:      m:x1:17     m:x1:16     m:x1:15     m:x1:2      m:x1:1
Model:    x1:p_130n   x1:p_130n   x1:p_130n   x1:p_130n   x1:p_130n
Id:       -5.12e-05   -5.01e-06   -5.12e-05   -1.05e-04    9.96e-05
Vgs:      -1.65e+00   -1.36e+00   -1.36e+00   -1.61e+00   -6.49e-01
Vds:      -1.65e+00   -3.87e-02   -1.36e+00   -6.55e-03    2.40e-02
Vbs:       1.36e+00    0.00e+00    0.00e+00    0.00e+00    0.00e+00
Vth:      -5.84e-01   -3.67e-01   -3.67e-01   -3.84e-01   -3.79e-01
Vdsat:    -8.27e-01   -7.31e-01   -7.31e-01   -8.66e-01   -2.39e-01
Gm:        7.33e-05    3.97e-06    8.79e-05    5.05e-05    3.71e-04
Gds:       4.16e-07    1.26e-04    5.77e-07    1.59e-02    3.92e-03
Gmb        1.57e-05    1.36e-06    1.86e-05    2.58e-05    7.11e-05
Cbd:       1.43e-15    2.82e-15    1.86e-15    1.48e-13    1.50e-13
Cbs:       1.86e-15    2.88e-15    2.88e-15    1.48e-13    1.48e-13
Cgsov:     1.99e-15    1.99e-15    1.99e-15    1.05e-13    1.04e-13
Cgdov:     1.95e-15    1.99e-15    1.95e-15    1.05e-13    1.04e-13
Cgbov:     0.00e+00    0.00e+00    0.00e+00    0.00e+00    0.00e+00
dQgdVgb:   6.42e-14    8.48e-14    6.59e-14    2.28e-12    2.30e-12
dQgdVdb:  -1.99e-15   -4.10e-14   -2.03e-15   -1.13e-12   -1.01e-12
dQgdVsb:  -5.97e-14   -4.36e-14   -6.19e-14   -1.14e-12   -1.28e-12
dQddVgb:  -2.05e-15   -4.22e-14   -2.13e-15   -1.14e-12   -1.13e-12
dQddVdb:   3.47e-15    8.76e-14    3.98e-15    2.42e-12    2.17e-12
dQddVsb:   2.69e-17   -3.48e-14    3.05e-17   -9.23e-13   -6.90e-13
dQbdVgb:  -6.66e-15   -2.64e-16   -8.09e-15   -5.12e-15   -1.61e-14
dQbdVdb:  -1.44e-15   -1.90e-14   -1.89e-15   -5.64e-13   -5.20e-13
dQbdVsb:  -4.92e-15   -2.85e-15   -7.68e-15   -1.54e-13   -1.78e-13

Name:      m:x1:11     m:x1:10     m:x1:9      m:x1:8      m:x1:14
Model:    x1:p_130n   x1:p_130n   x1:p_130n   x1:p_130n   x1:n_130n
Id:       -1.99e-04   -5.83e-06   -1.10e-04   -9.98e-05    5.12e-05
Vgs:      -1.36e+00   -1.36e+00   -2.97e+00   -3.00e+00    2.30e+00
Vds:      -1.46e-02   -4.52e-02   -7.72e-01   -6.73e-01    1.01e-01
Vbs:       0.00e+00    0.00e+00    4.52e-02    1.46e-02   -1.80e-01
Vth:      -3.84e-01   -3.67e-01   -3.76e-01   -3.70e-01    3.96e-01
Vdsat:    -7.01e-01   -7.31e-01   -1.90e+00   -1.92e+00    1.30e+00
Gm:        1.55e-04    4.65e-06    1.24e-06   -1.13e-06    8.67e-07
Gds:       1.35e-02    1.25e-04    1.08e-04    1.18e-04    4.87e-04
Gmb        5.42e-05    1.59e-06    2.10e-05    1.90e-05    1.06e-05
Cbd:       1.47e-13    2.81e-15    2.12e-15    2.20e-15    2.53e-15
Cbs:       1.48e-13    2.88e-15    2.81e-15    2.86e-15    2.64e-15
Cgsov:     1.05e-13    1.99e-15    1.99e-15    1.99e-15    1.99e-15
Cgdov:     1.05e-13    1.99e-15    1.99e-15    1.99e-15    1.99e-15
Cgbov:     0.00e+00    0.00e+00    0.00e+00    0.00e+00    0.00e+00
dQgdVgb:   2.29e-12    8.47e-14    8.15e-14    8.20e-14    8.38e-14
dQgdVdb:  -1.12e-12   -4.08e-14   -3.37e-14   -3.54e-14   -4.13e-14
dQgdVsb:  -1.16e-12   -4.37e-14   -4.79e-14   -4.66e-14   -4.24e-14
dQddVgb:  -1.14e-12   -4.21e-14   -3.81e-14   -3.91e-14   -4.17e-14
dQddVdb:   2.39e-12    8.73e-14    7.12e-14    7.50e-14    8.50e-14
dQddVsb:  -8.99e-13   -3.45e-14   -2.89e-14   -3.12e-14   -3.42e-14
dQbdVgb:  -6.33e-15   -2.70e-16   -7.50e-16   -5.57e-16   -1.29e-16
dQbdVdb:  -5.59e-13   -1.90e-14   -1.51e-14   -1.60e-14   -1.69e-14
dQbdVsb:  -1.57e-13   -2.87e-15   -1.15e-15   -1.05e-15   -2.20e-15

Name:      m:x1:13     m:x1:12     m:x1:3      m:x1:7      m:x1:6
Model:    x1:n_130n   x1:n_130n   x1:n_130n   x1:n_130n   x1:n_130n
Id:        5.12e-05    9.86e-05    9.98e-05    9.98e-05    1.12e-04
Vgs:       1.15e+00    1.34e+00    1.15e+00    1.34e+00    1.34e+00
Vds:       1.80e-01    1.34e+00    1.15e+00    1.47e+00    1.34e+00
Vbs:       0.00e+00   -1.15e+00    0.00e+00   -1.14e+00   -7.92e-01
Vth:       3.62e-01    5.39e-01    3.62e-01    5.38e-01    4.91e-01
Vdsat:     5.70e-01    6.13e-01    5.70e-01    6.17e-01    6.42e-01
Gm:        7.16e-05    2.03e-04    2.29e-04    2.04e-04    2.18e-04
Gds:       2.30e-04    1.38e-06    1.51e-06    1.36e-06    1.52e-06
Gmb        1.56e-05    3.51e-05    3.80e-05    3.54e-05    3.92e-05
Cbd:       2.64e-15    1.53e-15    1.95e-15    1.51e-15    1.62e-15
Cbs:       2.88e-15    1.95e-15    2.88e-15    1.95e-15    2.14e-15
Cgsov:     1.99e-15    1.99e-15    1.99e-15    1.99e-15    1.99e-15
Cgdov:     1.99e-15    1.95e-15    1.95e-15    1.91e-15    1.95e-15
Cgbov:     0.00e+00    0.00e+00    0.00e+00    0.00e+00    0.00e+00
dQgdVgb:   8.39e-14    6.44e-14    6.58e-14    6.43e-14    6.45e-14
dQgdVdb:  -3.51e-14   -2.00e-15   -2.04e-15   -1.94e-15   -2.01e-15
dQgdVsb:  -4.85e-14   -5.98e-14   -6.16e-14   -5.98e-14   -5.99e-14
dQddVgb:  -4.00e-14   -2.08e-15   -2.16e-15   -1.99e-15   -2.10e-15
dQddVdb:   7.37e-14    3.59e-15    4.09e-15    3.48e-15    3.69e-15
dQddVsb:  -2.51e-14    4.01e-17    4.87e-17    3.16e-17    4.12e-17
dQbdVgb:  -7.44e-16   -6.56e-15   -7.81e-15   -6.57e-15   -6.70e-15
dQbdVdb:  -1.56e-14   -1.55e-15   -1.99e-15   -1.52e-15   -1.64e-15
dQbdVsb:  -4.11e-15   -4.98e-15   -7.79e-15   -4.98e-15   -5.70e-15

Name:      m:x1:5      m:x1:4
Model:    x1:n_130n   x1:n_130n
Id:        9.98e-05    1.11e-04
Vgs:       1.15e+00    1.15e+00
Vds:       1.14e+00    1.15e+00
Vbs:       0.00e+00    3.54e-01
Vth:       3.62e-01    3.05e-01
Vdsat:     5.70e-01    5.82e-01
Gm:        2.29e-04    2.39e-04
Gds:       1.51e-06    1.61e-06
Gmb        3.80e-05    2.38e-05
Cbd:       1.95e-15    2.14e-15
Cbs:       2.88e-15    3.41e-15
Cgsov:     1.99e-15    1.99e-15
Cgdov:     1.95e-15    1.95e-15
Cgbov:     0.00e+00    0.00e+00
dQgdVgb:   6.58e-14    6.67e-14
dQgdVdb:  -2.04e-15   -2.05e-15
dQgdVsb:  -6.16e-14   -6.48e-14
dQddVgb:  -2.17e-15   -2.18e-15
dQddVdb:   4.10e-15    4.31e-15
dQddVsb:   4.90e-17    2.59e-17
dQbdVgb:  -7.81e-15   -8.65e-15
dQbdVdb:  -1.99e-15   -2.18e-15
dQbdVsb:  -7.79e-15   -1.88e-15



Date: Sun Dec 15 17:23:57 2024
Total elapsed time: 0.114 seconds.

tnom = 27
temp = 27
method = trap
totiter = 425
traniter = 0
tranpoints = 0
accept = 0
rejected = 0
matrix size = 15
fillins = 16
solver = Normal
Matrix Compiler1: 2.95 KB object code size
Matrix Compiler2: 1.95 KB object code size  0.2/0.2/[0.2]

